Circuit: * C:\Users\SAMPLE\Downloads\diff2.asc

Warning: Pd = 0 is less than W.
Warning: Ps = 0 is less than W.
Warning: Pd = 0 is less than W.
Warning: Ps = 0 is less than W.
Warning: Pd = 0 is less than W.
Warning: Ps = 0 is less than W.
Direct Newton iteration for .op point succeeded.
Semiconductor Device Operating Points:
                        --- BSIM3 MOSFETS ---
Name:        m4          m2          m5          m3          m1
Model:      pmos        pmos        nmos        nmos        nmos
Id:       -1.40e-04   -1.40e-04    2.80e-04    1.40e-04    1.40e-04
Vgs:      -1.13e+00   -1.13e+00    4.81e-01    4.99e-01    4.99e-01
Vds:      -1.34e+00   -1.34e+00    1.01e-01    1.56e+00    1.56e+00
Vbs:       0.00e+00    0.00e+00    0.00e+00   -1.01e-01   -1.01e-01
Vth:      -4.14e-01   -4.14e-01    4.25e-01    4.95e-01    4.95e-01
Vdsat:    -4.62e-01   -4.62e-01    9.35e-02    7.03e-02    7.03e-02
Gm:        3.42e-04    3.42e-04    4.20e-03    2.61e-03    2.61e-03
Gds:       5.31e-06    5.31e-06    5.96e-04    2.04e-05    2.04e-05
Gmb        8.93e-05    8.93e-05    1.31e-03    7.80e-04    7.80e-04
Cbd:       0.00e+00    0.00e+00    0.00e+00    0.00e+00    0.00e+00
Cbs:       0.00e+00    0.00e+00    0.00e+00    0.00e+00    0.00e+00
Cgsov:     1.22e-14    1.22e-14    2.85e-13    9.81e-14    9.81e-14
Cgdov:     1.19e-14    1.19e-14    2.85e-13    8.79e-14    8.79e-14
Cgbov:     0.00e+00    0.00e+00    0.00e+00    0.00e+00    0.00e+00
dQgdVgb:   3.00e-13    3.00e-13    6.17e-12    7.10e-13    7.10e-13
dQgdVdb:  -1.19e-14   -1.19e-14   -4.32e-13   -8.79e-14   -8.79e-14
dQgdVsb:  -2.77e-13   -2.77e-13   -5.11e-12   -4.88e-13   -4.88e-13
dQddVgb:  -1.21e-14   -1.21e-14   -6.90e-13   -8.80e-14   -8.80e-14
dQddVdb:   1.20e-14    1.20e-14    6.26e-13    8.79e-14    8.79e-14
dQddVsb:   9.87e-17    9.87e-17    1.88e-13    1.05e-16    1.05e-16
dQbdVgb:  -5.28e-14   -5.28e-14   -9.92e-13   -1.79e-13   -1.79e-13
dQbdVdb:  -6.05e-17   -6.05e-17   -8.00e-14   -1.15e-18   -1.15e-18
dQbdVsb:  -2.37e-14   -2.37e-14   -9.80e-13   -5.68e-14   -5.68e-14



Date: Fri Sep 09 23:42:27 2022
Total elapsed time: 0.145 seconds.

tnom = 27
temp = 27
method = trap
totiter = 14
traniter = 0
tranpoints = 0
accept = 0
rejected = 0
matrix size = 13
fillins = 0
solver = Normal
Matrix Compiler1:      31 opcodes
Matrix Compiler2: 989 bytes object code size
